!Created with skrf (http://scikit-rf.org).
# MHz S RI R 46.6 
!freq ReS11 ImS11 ReS12 ImS12 ReS13 ImS13
! ReS14 ImS14
! ReS21 ImS21 ReS22 ImS22 ReS23 ImS23
! ReS24 ImS24
! ReS31 ImS31 ReS32 ImS32 ReS33 ImS33
! ReS34 ImS34
! ReS41 ImS41 ReS42 ImS42 ReS43 ImS43
! ReS44 ImS44
!
44.0 0.10306623382976188 0.9362827693505921 -0.0033077697136587947 0.001207223864262811 -0.00901448467051647 0.0010342433732492009 0.0011238060301676674 -0.0004686267744629394
 -0.0038791456392482126 0.0006122519620864837 0.09940932941799516 0.9371526856173245 3.311151983388873e-05 -0.00028803149144998553 -0.008653072256978537 0.0005245331077326936
 -0.008807137836337292 0.0010868415483368226 -0.0002722894025221511 -0.0005202037254689065 0.1002602148124282 0.9364247463007395 -0.0033792566985963025 0.001222675696078806
 0.0009967994056500013 -0.00014542129544378116 -0.008480008347233708 0.0005863683943201266 -0.003926970943646781 0.0005584146540703849 0.10203037148246516 0.9369606926276788
! Port Impedance 46.60000000000000 0.00000000000000 46.60000000000000 0.00000000000000 46.60000000000000 0.00000000000000 46.60000000000000 0.00000000000000
46.0 0.03548604748379209 0.9360201088632061 -0.0033524050985618056 0.0005849128906480319 -0.00936460367705241 1.9492200035470805e-05 0.0006951076610323441 -2.6564926142897465e-05
 -0.0039012514569133445 0.00021988990298935107 0.03176637968540171 0.9365214455145403 -0.0004722150093736199 -6.737235382193695e-05 -0.009040340248629338 -0.0003871628471940302
 -0.009152446838907249 0.00014836299555654866 -0.0010040887576918624 -0.00017473469196050548 0.032617549613970266 0.9358622953259773 -0.0033820241144343604 0.0005756149375179742
 0.0008370835413790198 7.124309818854754e-05 -0.008884040388421346 -0.0003006944831304127 -0.0039020872109352014 0.0002131177615816217 0.03436898642367637 0.9365881971039101
! Port Impedance 46.60000000000000 0.00000000000000 46.60000000000000 0.00000000000000 46.60000000000000 0.00000000000000 46.60000000000000 0.00000000000000
48.0 -0.03205308721841798 0.9302195435372731 -0.0036406135750581643 0.0004600274862158804 -0.01001029179980915 -0.0006316445715763025 0.0008541828393849073 -0.0002491663432146605
 -0.0041312257684202715 -6.525743775220565e-05 -0.035952752460549374 0.9305901648750191 -0.0003600449784243366 -0.0003113755529545523 -0.009603854603296557 -0.0010903482890787203
 -0.00981830591134959 -0.0005069465325308464 -0.0007834277764057564 -0.0006345454765289362 -0.0349356215865685 0.929946218361455 -0.0036756040725921353 0.0004779129919494514
 0.0008950424280516555 -1.7939382923829312e-05 -0.009450217823860135 -0.0010021610727370279 -0.004151714514241797 -4.906677640058192e-05 -0.03329966064159599 0.9307418879559434
! Port Impedance 46.60000000000000 0.00000000000000 46.60000000000000 0.00000000000000 46.60000000000000 0.00000000000000 46.60000000000000 0.00000000000000
50.0 -0.09922825500116397 0.9194308429229794 -0.003806143824741715 -2.5894370894704014e-05 -0.010552877138398814 -0.0017752693715757332 0.0010228279605812636 9.485658381916962e-05
 -0.004245698080472457 -0.0004882276056610946 -0.10338323999490796 0.9195168587716811 -0.0003234622869914084 -0.00017190775392005066 -0.010071206713857153 -0.002186220484661762
 -0.010358911586178025 -0.0015910470680656958 -0.0007380870013331697 -0.0003672032859388213 -0.10225759990420434 0.9189791918398243 -0.0038721864569115968 -2.5088385603363873e-05
 0.0010653428256420887 0.00016398231030704624 -0.009920297245547076 -0.0020602097514950605 -0.004295054194378783 -0.0004855180560759876 -0.10060142177657524 0.9198813294225298
! Port Impedance 46.60000000000000 0.00000000000000 46.60000000000000 0.00000000000000 46.60000000000000 0.00000000000000 46.60000000000000 0.00000000000000
52.0 -0.1657553644509124 0.9033061109431264 -0.0038818435397758896 -0.00020802275956712148 -0.010835328768341776 -0.0026853027378182766 0.000856779524074514 3.399758986209127e-05
 -0.0043562340858039 -0.0008289483308629296 -0.17006957114267332 0.9030217144009475 -0.0003868365357267479 -0.0003270441233105128 -0.010278755282567508 -0.0031619975399619416
 -0.010689068067783707 -0.0025056557900391264 -0.000871298889192824 -0.0007752370719971486 -0.16877095803699768 0.902546772497637 -0.003974885979325136 -0.00021713053758058132
 0.0009657124052357103 0.00026713790929336947 -0.010149644074467092 -0.0030389924901156043 -0.004416648944113895 -0.0008715482518309309 -0.16729274045414103 0.9036625038363473
! Port Impedance 46.60000000000000 0.00000000000000 46.60000000000000 0.00000000000000 46.60000000000000 0.00000000000000 46.60000000000000 0.00000000000000
54.0 -0.2310718410382077 0.8820043739968823 -0.004093960124234218 -0.0006200526148463913 -0.011343720574743305 -0.00380507852839363 0.0012076544278002339 3.084717397920491e-05
 -0.004443455444908074 -0.0012566468770991125 -0.23547547483796424 0.8813531198707243 -0.00023075080632371545 -0.0003538587625655057 -0.010570792158330594 -0.004270921123173072
 -0.011172157789000195 -0.0036138439937617194 -0.00047002494816276525 -0.000778364995629136 -0.2340239335746556 0.8810826010702554 -0.004226161586926116 -0.0007078803042590007
 0.0011546986590566055 0.0002433588545568736 -0.010438673509026941 -0.00412053628808381 -0.004469174108401341 -0.0013422735612400026 -0.23273266174662932 0.8821995621215281
! Port Impedance 46.60000000000000 0.00000000000000 46.60000000000000 0.00000000000000 46.60000000000000 0.00000000000000 46.60000000000000 0.00000000000000
56.0 -0.2948260805818151 0.8554721446445313 -0.004130405281188439 -0.0009319792373357285 -0.011515690327910088 -0.00518609391682273 0.0012296652693744138 0.0004081614221741193
 -0.004517120588551889 -0.0016942286825343818 -0.2993051137408766 0.854371901527771 -0.0001867075342564552 -0.00030084708892288335 -0.010572970648598847 -0.005499479784349751
 -0.011373022136665373 -0.004979395426629645 -0.0005352724486872493 -0.0007256476021705949 -0.29779912372875816 0.854322095395929 -0.004192827588292094 -0.001123964515874762
 0.001242643164079918 0.0005869968923126671 -0.010473527893140029 -0.005363656941458679 -0.004479846073671697 -0.001785930422716868 -0.29662187806791745 0.8555213595473691
! Port Impedance 46.60000000000000 0.00000000000000 46.60000000000000 0.00000000000000 46.60000000000000 0.00000000000000 46.60000000000000 0.00000000000000
64.0 -0.5252121854452944 0.6997681177545608 -0.0039394710873457105 -0.0029275591544705476 -0.01038405040617585 -0.01095708106340377 0.0008491513405692433 0.001034687804889071
 -0.0037358328298869 -0.0035862143040688707 -0.5291050648278515 0.6969645167337252 -0.00026590126073295636 9.483491547973723e-05 -0.009386605873037844 -0.010457395437579736
 -0.01035140658376791 -0.01054907952578932 -0.0005116494908328424 -0.0005369661364062307 -0.5279365678098452 0.6976438682905035 -0.0036098732175834218 -0.002981148168492409
 0.0009803917266615497 0.0013812995949215557 -0.009284295781431025 -0.010136129335480276 -0.00358683478046693 -0.0036300600289364006 -0.527141891342112 0.6985804046048265
! Port Impedance 46.60000000000000 0.00000000000000 46.60000000000000 0.00000000000000 46.60000000000000 0.00000000000000 46.60000000000000 0.00000000000000
