! Touchstone file exported from Circuit Design 2022.2.0
!        File:           C:/Users/JH218595/Documents/Modeling/WEST ICRH/WEST_ICRH_Capacitor.aedt
!        Generated:      12:33:36  mars 24, 2024
!        Design:         WEST_capacitor_equivalent_circuit
!        Project:        WEST_ICRH_Capacitor
!        Setup:          LinearFrequency
!        Solution:       LinearFrequency
!
! Variables:
!        C = 50pF
!        C1 = 25.7pF
!        L = 2.99e-08H
!        L1 = 2.4e-09H
!        R0 = 0.01ohm
!        R1 = 0.01ohm
!        Z_bridge = 50ohm
!        Z_strap = 50ohm
!
# GHz S MA R 50.000000
! Terminal data exported
! Port[1] = Port1
! Port[2] = Port2
0.03                           0.790756703739083 -65.013378028676 0.611848489893957 24.9688144968048 0.611848489893957 24.9688144968048 0.790756703737378 -65.0133780286759 
! Gamma         0                0                0                0                
! Port Impedance         50               0                50               0                
0.03001                        0.790692844400717 -65.0281450619128 0.611930924422274 24.9540436587489 0.611930924422273 24.9540436587489 0.790692844399293 -65.0281450619128 
! Gamma         0                0                0                0                
! Port Impedance         50               0                50               0                
0.03002                        0.790629012825218 -65.0429084043208 0.612013305347283 24.93927651307   0.612013305347283 24.93927651307   0.790629012825692 -65.0429084043209 
! Gamma         0                0                0                0                
! Port Impedance         50               0                50               0                
0.03003                        0.790565209011885 -65.0576680574146 0.612095632698878 24.9245130583948 0.612095632698878 24.9245130583948 0.790565209010506 -65.0576680574146 
! Gamma         0                0                0                0                
! Port Impedance         50               0                50               0                
0.03004                        0.790501432959191 -65.0724240225889 0.61217790651099 24.9097532931506 0.61217790651099 24.9097532931506 0.790501432958941 -65.0724240225889 
! Gamma         0                0                0                0                
! Port Impedance         50               0                50               0                
0.03005                        0.790437684666401 -65.0871763013577 0.612260126813491 24.8949972159649 0.612260126813491 24.8949972159649 0.790437684664923 -65.0871763013577 
! Gamma         0                0                0                0                
! Port Impedance         50               0                50               0                
0.03006                        0.790373964132192 -65.1019248951485 0.612342293639135 24.8802448253216 0.612342293639135 24.8802448253216 0.790373964130425 -65.1019248951484 
! Gamma         0                0                0                0                
! Port Impedance         50               0                50               0                
0.03007                        0.790310271355389 -65.1166698054145 0.612424407019795 24.8654961197486 0.612424407019795 24.8654961197486 0.790310271354999 -65.1166698054144 
! Gamma         0                0                0                0                
! Port Impedance         50               0                50               0                
0.03008                        0.790246606335093 -65.1314110336514 0.612506466985887 24.8507510978454 0.612506466985887 24.8507510978454 0.790246606334175 -65.1314110336514 
! Gamma         0                0                0                0                
! Port Impedance         50               0                50               0                
0.03009                        0.790182969069987 -65.1461485812937 0.612588473569843 24.8360097581104 0.612588473569843 24.8360097581104 0.790182969069105 -65.1461485812937 
! Gamma         0                0                0                0                
! Port Impedance         50               0                50               0                
0.0301                         0.790119359558905 -65.1608824498023 0.612670426803216 24.8212720990867 0.612670426803216 24.8212720990867 0.790119359558528 -65.1608824498022 
! Gamma         0                0                0                0                
! Port Impedance         50               0                50               0                
0.03011                        0.790055777800787 -65.1756126406535 0.612752326716967 24.8065381193447 0.612752326716967 24.8065381193446 0.79005577779957 -65.1756126406535 
! Gamma         0                0                0                0                
! Port Impedance         50               0                50               0                
0.03012                        0.789992223794262 -65.1903391552812 0.612834173343495 24.7918078173842 0.612834173343495 24.7918078173842 0.789992223793372 -65.1903391552812 
! Gamma         0                0                0                0                
! Port Impedance         50               0                50               0                
0.03013                        0.789928697538179 -65.2050619951527 0.612915966714031 24.777081191762  0.612915966714031 24.777081191762  0.789928697537857 -65.2050619951527 
! Gamma         0                0                0                0                
! Port Impedance         50               0                50               0                
0.03014                        0.789865199031421 -65.2197811617438 0.612997706859502 24.76235824105   0.612997706859502 24.76235824105   0.78986519903014 -65.2197811617438 
! Gamma         0                0                0                0                
! Port Impedance         50               0                50               0                
0.03015                        0.789801728272575 -65.2344966564863 0.613079393812275 24.7476389637477 0.613079393812275 24.7476389637477 0.78980172827135 -65.2344966564862 
! Gamma         0                0                0                0                
! Port Impedance         50               0                50               0                
0.03016                        0.789738285260438 -65.2492084808463 0.613161027603547 24.7329233584128 0.613161027603547 24.7329233584128 0.789738285259398 -65.2492084808464 
! Gamma         0                0                0                0                
! Port Impedance         50               0                50               0                
0.03017                        0.789674869993792 -65.2639166362894 0.613242608264504 24.7182114236023 0.613242608264504 24.7182114236023 0.789674869992192 -65.2639166362894 
! Gamma         0                0                0                0                
! Port Impedance         50               0                50               0                
0.03018                        0.789611482471226 -65.278621124255 0.613324135827189 24.7035031578314 0.613324135827189 24.7035031578314 0.789611482470046 -65.278621124255 
! Gamma         0                0                0                0                
! Port Impedance         50               0                50               0                
0.03019                        0.789548122691607 -65.2933219462248 0.613405610322187 24.6887985596866 0.613405610322187 24.6887985596866 0.789548122689256 -65.2933219462248 
! Gamma         0                0                0                0                
! Port Impedance         50               0                50               0                
0.0302                         0.789484790653324 -65.3080191036111 0.613487031782388 24.6740976276395 0.613487031782388 24.6740976276395 0.789484790652533 -65.3080191036111 
! Gamma         0                0                0                0                
! Port Impedance         50               0                50               0                
0.03021                        0.78942148635532 -65.3227125979124 0.613568400237776 24.6594003603058 0.613568400237776 24.6594003603058 0.789421486354561 -65.3227125979124 
! Gamma         0                0                0                0                
! Port Impedance         50               0                50               0                
0.03022                        0.789358209796126 -65.3374024305658 0.61364971572035 24.6447067562006 0.61364971572035 24.6447067562006 0.789358209795639 -65.3374024305658 
! Gamma         0                0                0                0                
! Port Impedance         50               0                50               0                
0.03023                        0.789294960974368 -65.3520886030255 0.613730978261521 24.6300168138681 0.613730978261521 24.6300168138681 0.789294960974454 -65.3520886030255 
! Gamma         0                0                0                0                
! Port Impedance         50               0                50               0                
0.03024                        0.789231739888715 -65.3667711167539 0.613812187892395 24.6153305318669 0.613812187892395 24.6153305318669 0.789231739888891 -65.366771116754 
! Gamma         0                0                0                0                
! Port Impedance         50               0                50               0                
0.03025                        0.78916854653782 -65.3814499732127 0.613893344644073 24.6006479087554 0.613893344644073 24.6006479087554 0.789168546536831 -65.3814499732127 
! Gamma         0                0                0                0                
! Port Impedance         50               0                50               0                
0.03026                        0.789105380920146 -65.3961251738375 0.613974448548508 24.5859689430499 0.613974448548508 24.5859689430499 0.789105380918554 -65.3961251738375 
! Gamma         0                0                0                0                
! Port Impedance         50               0                50               0                
0.03027                        0.789042243034373 -65.4107967200977 0.614055499636488 24.5712936333234 0.614055499636488 24.5712936333234 0.789042243031133 -65.4107967200976 
! Gamma         0                0                0                0                
! Port Impedance         50               0                50               0                
0.03028                        0.788979132878649 -65.4254646133839 0.614136497941392 24.5566219780199 0.614136497941392 24.5566219780199 0.788979132878843 -65.4254646133839 
! Gamma         0                0                0                0                
! Port Impedance         50               0                50               0                
0.03029                        0.788916050452133 -65.4401288552433 0.614217443491381 24.5419539758427 0.614217443491381 24.5419539758426 0.788916050451545 -65.4401288552433 
! Gamma         0                0                0                0                
! Port Impedance         50               0                50               0                
0.0303                         0.788852995752998 -65.4547894470745 0.614298336319524 24.5272896252505 0.614298336319524 24.5272896252505 0.788852995752707 -65.4547894470745 
! Gamma         0                0                0                0                
! Port Impedance         50               0                50               0                
0.03031                        0.788789968779859 -65.4694463903452 0.614379176456561 24.5126289248175 0.614379176456561 24.5126289248175 0.788789968779387 -65.4694463903452 
! Gamma         0                0                0                0                
! Port Impedance         50               0                50               0                
0.03032                        0.788726969531143 -65.4840996864964 0.614459963934095 24.4979718730747 0.614459963934095 24.4979718730747 0.788726969531045 -65.4840996864965 
! Gamma         0                0                0                0                
! Port Impedance         50               0                50               0                
0.03033                        0.788663998005434 -65.4987493369948 0.614540698782844 24.4833184685957 0.614540698782844 24.4833184685957 0.788663998004731 -65.4987493369948 
! Gamma         0                0                0                0                
! Port Impedance         50               0                50               0                
0.03034                        0.788601054201182 -65.5133953432895 0.614621381034096 24.4686687099271 0.614621381034096 24.4686687099271 0.788601054199099 -65.5133953432895 
! Gamma         0                0                0                0                
! Port Impedance         50               0                50               0                
0.03035                        0.788538138116715 -65.528037706811 0.614702010719709 24.4540225955851 0.614702010719709 24.454022595585  0.788538138114392 -65.528037706811 
! Gamma         0                0                0                0                
! Port Impedance         50               0                50               0                
0.03036                        0.788475249750393 -65.5426764289989 0.614782587871236 24.439380124102  0.614782587871236 24.439380124102  0.788475249750052 -65.5426764289989 
! Gamma         0                0                0                0                
! Port Impedance         50               0                50               0                
0.03037                        0.788412389101023 -65.5573115113615 0.614863112517908 24.4247412941243 0.614863112517908 24.4247412941243 0.788412389099127 -65.5573115113615 
! Gamma         0                0                0                0                
! Port Impedance         50               0                50               0                
0.03038                        0.788349556166594 -65.5719429552847 0.614943584692993 24.4101061040979 0.614943584692993 24.4101061040979 0.788349556165844 -65.5719429552848 
! Gamma         0                0                0                0                
! Port Impedance         50               0                50               0                
0.03039                        0.788286750945826 -65.5865707622672 0.615024004425988 24.3954745526549 0.615024004425988 24.3954745526549 0.788286750944046 -65.5865707622672 
! Gamma         0                0                0                0                
! Port Impedance         50               0                50               0                
0.0304                         0.788223973436849 -65.60119493372  0.615104371749274 24.3808466382848 0.615104371749273 24.3808466382848 0.788223973435554 -65.60119493372  
! Gamma         0                0                0                0                
! Port Impedance         50               0                50               0                
0.03041                        0.788161223638122 -65.6158154711058 0.61518468669348 24.3662223595626 0.61518468669348 24.3662223595626 0.788161223637398 -65.6158154711058 
! Gamma         0                0                0                0                
! Port Impedance         50               0                50               0                
0.03042                        0.78809850154814 -65.6304323758965 0.61526494928894 24.3516017150792 0.61526494928894 24.3516017150792 0.788098501545808 -65.6304323758965 
! Gamma         0                0                0                0                
! Port Impedance         50               0                50               0                
0.03043                        0.788035807164993 -65.6450456495008 0.615345159567998 24.3369847033232 0.615345159567998 24.3369847033232 0.788035807162595 -65.6450456495008 
! Gamma         0                0                0                0                
! Port Impedance         50               0                50               0                
0.03044                        0.787973140487031 -65.6596552933719 0.615425317561543 24.3223713228568 0.615425317561543 24.3223713228568 0.787973140485577 -65.6596552933719 
! Gamma         0                0                0                0                
! Port Impedance         50               0                50               0                
0.03045                        0.787910501512653 -65.6742613089705 0.615505423300163 24.3077615722555 0.615505423300163 24.3077615722555 0.787910501511771 -65.6742613089705 
! Gamma         0                0                0                0                
! Port Impedance         50               0                50               0                
0.03046                        0.787847890240178 -65.6888636977488 0.615585476814724 24.293155450082  0.615585476814723 24.2931554500821 0.787847890238991 -65.6888636977488 
! Gamma         0                0                0                0                
! Port Impedance         50               0                50               0                
0.03047                        0.787785306667747 -65.7034624611315 0.615665478136946 24.2785529548548 0.615665478136946 24.2785529548548 0.787785306667437 -65.7034624611315 
! Gamma         0                0                0                0                
! Port Impedance         50               0                50               0                
0.03048                        0.787722750793879 -65.7180576006045 0.615745427296519 24.2639540851933 0.615745427296519 24.2639540851933 0.787722750791728 -65.7180576006044 
! Gamma         0                0                0                0                
! Port Impedance         50               0                50               0                
0.03049                        0.787660222616452 -65.7326491175566 0.615825324326299 24.2493588395596 0.615825324326299 24.2493588395596 0.787660222615245 -65.7326491175566 
! Gamma         0                0                0                0                
! Port Impedance         50               0                50               0                
0.0305                         0.787597722133956 -65.747237013473 0.615905169255951 24.2347672165737 0.615905169255951 24.2347672165737 0.787597722132602 -65.747237013473 
! Gamma         0                0                0                0                
! Port Impedance         50               0                50               0                
0.03051                        0.787535249344524 -65.7618212897853 0.615984962116863 24.2201792147695 0.615984962116863 24.2201792147695 0.787535249343188 -65.7618212897853 
! Gamma         0                0                0                0                
! Port Impedance         50               0                50               0                
0.03052                        0.787472804246387 -65.7764019479424 0.616064702939835 24.2055948327097 0.616064702939835 24.2055948327097 0.787472804244798 -65.7764019479423 
! Gamma         0                0                0                0                
! Port Impedance         50               0                50               0                
0.03053                        0.787410386837647 -65.790978989375 0.616144391756233 24.1910140689288 0.616144391756233 24.1910140689288 0.787410386836816 -65.790978989375 
! Gamma         0                0                0                0                
! Port Impedance         50               0                50               0                
0.03054                        0.787347997116676 -65.8055524155575 0.616224028595966 24.1764369220329 0.616224028595966 24.1764369220329 0.787347997114642 -65.8055524155574 
! Gamma         0                0                0                0                
