! Touchstone file exported from Circuit Design 2022.2.0
!        File:           C:/Users/JH218595/Documents/Modeling/WEST ICRH/WEST_ICRH_Capacitor.aedt
!        Generated:      9:24:23  mars 25, 2024
!        Design:         WEST_capacitor_equivalent_circuit_bridge_antenna_ports
!        Project:        WEST_ICRH_Capacitor
!        Setup:          LinearFrequency
!        Solution:       LinearFrequency
!
! Variables:
!        C = 50pF
!        C1 = 25.7pF
!        L = 2.99e-08H
!        L1 = 2.4e-09H
!        R0 = 0.01ohm
!        R1 = 0.01ohm
!        Z_bridge = 13.605332097045ohm
!        Z_strap = 46.6367556961698ohm
!
# GHz S MA R 50.000000
! Terminal data exported
! Port[1] = Port1
! Port[2] = Port2
0.03                           0.790756703737848 -65.0133780286841 0.611848489893689 24.9688144968184 0.611848489893689 24.9688144968184 0.790756703737919 -65.0133780286841 
! Gamma         0                0                0                0                
! Port Impedance         50               0                50               0                
0.03001                        0.790692844399469 -65.028145061919 0.611930924422074 24.9540436587592 0.611930924422075 24.9540436587592 0.790692844400026 -65.028145061919 
! Gamma         0                0                0                0                
! Port Impedance         50               0                50               0                
0.03002                        0.790629012824122 -65.0429084043499 0.612013305346315 24.9392765131184 0.612013305346315 24.9392765131184 0.790629012824285 -65.0429084043498 
! Gamma         0                0                0                0                
! Port Impedance         50               0                50               0                
0.03003                        0.790565209010716 -65.0576680574333 0.612095632698263 24.924513058426  0.612095632698263 24.924513058426  0.790565209010087 -65.0576680574333 
! Gamma         0                0                0                0                
! Port Impedance         50               0                50               0                
0.03004                        0.790501432958146 -65.0724240226259 0.612177906509759 24.9097532932122 0.612177906509759 24.9097532932122 0.790501432956805 -65.0724240226259 
! Gamma         0                0                0                0                
! Port Impedance         50               0                50               0                
0.03005                        0.790437684665172 -65.0871763013665 0.612260126813204 24.8949972159796 0.612260126813204 24.8949972159796 0.79043768466541 -65.0871763013665 
! Gamma         0                0                0                0                
! Port Impedance         50               0                50               0                
0.03006                        0.790373964130997 -65.1019248951624 0.612342293638674 24.8802448253448 0.612342293638674 24.8802448253448 0.790373964130431 -65.1019248951624 
! Gamma         0                0                0                0                
! Port Impedance         50               0                50               0                
0.03007                        0.790310271354235 -65.1166698054348 0.612424407019124 24.8654961197823 0.612424407019124 24.8654961197824 0.790310271354422 -65.1166698054348 
! Gamma         0                0                0                0                
! Port Impedance         50               0                50               0                
0.03008                        0.790246606334005 -65.1314110336812 0.612506466984893 24.8507510978949 0.612506466984892 24.8507510978949 0.790246606332698 -65.1314110336811 
! Gamma         0                0                0                0                
! Port Impedance         50               0                50               0                
0.03009                        0.790182969068942 -65.1461485813308 0.612588473568615 24.836009758172  0.612588473568615 24.836009758172  0.79018296906698 -65.1461485813307 
! Gamma         0                0                0                0                
! Port Impedance         50               0                50               0                
0.0301                         0.790119359557737 -65.1608824498199 0.612670426802629 24.8212720991161 0.612670426802629 24.8212720991161 0.790119359558184 -65.1608824498199 
! Gamma         0                0                0                0                
! Port Impedance         50               0                50               0                
0.03011                        0.790055777799678 -65.1756126406804 0.612752326716074 24.8065381193894 0.612752326716074 24.8065381193894 0.790055777798375 -65.1756126406804 
! Gamma         0                0                0                0                
! Port Impedance         50               0                50               0                
0.03012                        0.789992223793248 -65.1903391553225 0.612834173342123 24.7918078174528 0.612834173342123 24.7918078174528 0.789992223790849 -65.1903391553224 
! Gamma         0                0                0                0                
! Port Impedance         50               0                50               0                
0.03013                        0.789928697537196 -65.205061995199 0.612915966712494 24.777081191839  0.612915966712493 24.777081191839  0.789928697534877 -65.205061995199 
! Gamma         0                0                0                0                
! Port Impedance         50               0                50               0                
0.03014                        0.789865199030256 -65.2197811617626 0.612997706858886 24.7623582410813 0.612997706858886 24.7623582410813 0.789865199029717 -65.2197811617626 
! Gamma         0                0                0                0                
! Port Impedance         50               0                50               0                
0.03015                        0.789801728271435 -65.2344966565085 0.613079393811544 24.7476389637845 0.613079393811545 24.7476389637845 0.789801728270607 -65.2344966565084 
! Gamma         0                0                0                0                
! Port Impedance         50               0                50               0                
0.03016                        0.789738285259318 -65.2492084808714 0.613161027602719 24.7329233584542 0.61316102760272 24.7329233584542 0.789738285258386 -65.2492084808713 
! Gamma         0                0                0                0                
! Port Impedance         50               0                50               0                
0.03017                        0.789674869992593 -65.2639166363027 0.613242608264072 24.7182114236243 0.613242608264072 24.7182114236243 0.789674869992278 -65.2639166363027 
! Gamma         0                0                0                0                
! Port Impedance         50               0                50               0                
0.03018                        0.789611482470045 -65.2786211242708 0.613324135826671 24.7035031578578 0.613324135826671 24.7035031578578 0.789611482469894 -65.2786211242708 
! Gamma         0                0                0                0                
! Port Impedance         50               0                50               0                
0.03019                        0.789548122690332 -65.2933219462261 0.61340561032215 24.6887985596887 0.613405610322151 24.6887985596887 0.789548122690437 -65.293321946226 
! Gamma         0                0                0                0                
! Port Impedance         50               0                50               0                
0.0302                         0.789484790652264 -65.3080191036452 0.613487031781261 24.6740976276959 0.613487031781261 24.6740976276959 0.789484790650691 -65.3080191036451 
! Gamma         0                0                0                0                
! Port Impedance         50               0                50               0                
0.03021                        0.789421486354237 -65.322712597943 0.613568400236764 24.6594003603565 0.613568400236765 24.6594003603565 0.789421486353041 -65.322712597943 
! Gamma         0                0                0                0                
! Port Impedance         50               0                50               0                
0.03022                        0.789358209794976 -65.3374024305864 0.613649715719676 24.6447067562347 0.613649715719676 24.6447067562347 0.789358209795052 -65.3374024305864 
! Gamma         0                0                0                0                
! Port Impedance         50               0                50               0                
0.03023                        0.789294960973304 -65.352088603059 0.613730978260417 24.6300168139235 0.613730978260417 24.6300168139235 0.789294960972679 -65.352088603059 
! Gamma         0                0                0                0                
! Port Impedance         50               0                50               0                
0.03024                        0.789231739887626 -65.3667711167836 0.613812187891418 24.615330531916  0.613812187891418 24.615330531916  0.789231739887469 -65.3667711167836 
! Gamma         0                0                0                0                
! Port Impedance         50               0                50               0                
0.03025                        0.789168546536734 -65.3814499732432 0.613893344643075 24.6006479088058 0.613893344643075 24.6006479088058 0.789168546535352 -65.3814499732432 
! Gamma         0                0                0                0                
! Port Impedance         50               0                50               0                
0.03026                        0.789105380919005 -65.3961251738594 0.613974448547792 24.5859689430861 0.613974448547792 24.5859689430861 0.789105380917855 -65.3961251738594 
! Gamma         0                0                0                0                
! Port Impedance         50               0                50               0                
0.03027                        0.789042243033087 -65.4107967200972 0.614055499636514 24.5712936333227 0.614055499636514 24.5712936333227 0.789042243032486 -65.4107967200972 
! Gamma         0                0                0                0                
! Port Impedance         50               0                50               0                
0.03028                        0.788979132877553 -65.4254646134121 0.614136497940462 24.5566219780665 0.614136497940462 24.5566219780665 0.788979132877549 -65.4254646134121 
! Gamma         0                0                0                0                
! Port Impedance         50               0                50               0                
0.03029                        0.788916050451016 -65.4401288552687 0.614217443490552 24.5419539758845 0.614217443490552 24.5419539758845 0.788916050450532 -65.4401288552687 
! Gamma         0                0                0                0                
! Port Impedance         50               0                50               0                
0.0303                         0.788852995751908 -65.454789447104 0.614298336318557 24.5272896252992 0.614298336318557 24.5272896252992 0.788852995751313 -65.454789447104 
! Gamma         0                0                0                0                
! Port Impedance         50               0                50               0                
0.03031                        0.788789968778701 -65.4694463903642 0.614379176455944 24.5126289248488 0.614379176455944 24.5126289248488 0.788789968778959 -65.4694463903641 
! Gamma         0                0                0                0                
! Port Impedance         50               0                50               0                
0.03032                        0.78872696953002 -65.4840996865206 0.614459963933301 24.4979718731144 0.614459963933301 24.4979718731144 0.788726969530131 -65.4840996865206 
! Gamma         0                0                0                0                
! Port Impedance         50               0                50               0                
0.03033                        0.788663998004137 -65.4987493369923 0.614540698782937 24.4833184685915 0.614540698782937 24.4833184685915 0.788663998006266 -65.4987493369923 
! Gamma         0                0                0                0                
! Port Impedance         50               0                50               0                
0.03034                        0.788601054199987 -65.5133953433024 0.614621381033676 24.4686687099483 0.614621381033677 24.4686687099483 0.788601054199216 -65.5133953433024 
! Gamma         0                0                0                0                
! Port Impedance         50               0                50               0                
0.03035                        0.788538138115413 -65.528037706808 0.614702010719823 24.4540225955801 0.614702010719823 24.4540225955801 0.788538138115985 -65.528037706808 
! Gamma         0                0                0                0                
! Port Impedance         50               0                50               0                
0.03036                        0.788475249749266 -65.5426764290226 0.614782587870465 24.439380124141  0.614782587870465 24.439380124141  0.7884752497492  -65.5426764290226 
! Gamma         0                0                0                0                
! Port Impedance         50               0                50               0                
0.03037                        0.788412389099811 -65.5573115113724 0.614863112517564 24.4247412941421 0.614863112517564 24.4247412941421 0.788412389099457 -65.5573115113724 
! Gamma         0                0                0                0                
! Port Impedance         50               0                50               0                
0.03038                        0.788349556165358 -65.5719429552914 0.614943584692784 24.4101061041087 0.614943584692784 24.4101061041087 0.788349556166545 -65.5719429552914 
! Gamma         0                0                0                0                
! Port Impedance         50               0                50               0                
0.03039                        0.788286750944709 -65.5865707622923 0.61502400442517 24.3954745526961 0.615024004425171 24.3954745526961 0.788286750943065 -65.5865707622922 
! Gamma         0                0                0                0                
! Port Impedance         50               0                50               0                
0.0304                         0.788223973435692 -65.6011949337386 0.615104371748668 24.3808466383152 0.615104371748668 24.3808466383152 0.788223973435159 -65.6011949337386 
! Gamma         0                0                0                0                
! Port Impedance         50               0                50               0                
0.03041                        0.788161223636964 -65.6158154711247 0.615184686692874 24.3662223595934 0.615184686692874 24.3662223595935 0.788161223637001 -65.6158154711246 
! Gamma         0                0                0                0                
! Port Impedance         50               0                50               0                
0.03042                        0.788098501546889 -65.6304323759004 0.615264949288817 24.3516017150856 0.615264949288817 24.3516017150856 0.788098501546743 -65.6304323759004 
! Gamma         0                0                0                0                
! Port Impedance         50               0                50               0                
0.03043                        0.788035807163757 -65.6450456495071 0.615345159567799 24.3369847033335 0.615345159567799 24.3369847033336 0.788035807163319 -65.6450456495071 
! Gamma         0                0                0                0                
! Port Impedance         50               0                50               0                
0.03044                        0.787973140485842 -65.6596552933853 0.61542531756111 24.3223713228787 0.61542531756111 24.3223713228787 0.787973140485655 -65.6596552933853 
! Gamma         0                0                0                0                
! Port Impedance         50               0                50               0                
0.03045                        0.787910501511518 -65.6742613089926 0.615505423299448 24.3077615722917 0.615505423299448 24.3077615722917 0.787910501511074 -65.6742613089926 
! Gamma         0                0                0                0                
! Port Impedance         50               0                50               0                
0.03046                        0.787847890239033 -65.6888636977687 0.615585476814075 24.2931554501146 0.615585476814075 24.2931554501146 0.787847890238478 -65.6888636977687 
! Gamma         0                0                0                0                
! Port Impedance         50               0                50               0                
0.03047                        0.78778530666667 -65.703462461162 0.615665478135949 24.2785529549046 0.615665478135949 24.2785529549046 0.787785306665964 -65.703462461162 
! Gamma         0                0                0                0                
! Port Impedance         50               0                50               0                
0.03048                        0.78772275079276 -65.7180576006288 0.615745427295728 24.2639540852331 0.615745427295728 24.2639540852331 0.787722750790824 -65.7180576006288 
! Gamma         0                0                0                0                
! Port Impedance         50               0                50               0                
0.03049                        0.787660222615222 -65.7326491175638 0.615825324326076 24.2493588395713 0.615825324326076 24.2493588395713 0.787660222615905 -65.7326491175638 
! Gamma         0                0                0                0                
! Port Impedance         50               0                50               0                
0.0305                         0.787597722132807 -65.7472370134929 0.615905169255312 24.2347672166061 0.615905169255312 24.2347672166061 0.787597722132117 -65.7472370134929 
! Gamma         0                0                0                0                
! Port Impedance         50               0                50               0                
0.03051                        0.787535249343405 -65.7618212898097 0.615984962116073 24.2201792148093 0.615984962116073 24.2201792148093 0.787535249342287 -65.7618212898097 
! Gamma         0                0                0                0                
! Port Impedance         50               0                50               0                
0.03052                        0.787472804245229 -65.7764019479606 0.616064702939249 24.2055948327394 0.616064702939249 24.2055948327394 0.787472804244459 -65.7764019479606 
! Gamma         0                0                0                0                
! Port Impedance         50               0                50               0                
0.03053                        0.787410386836532 -65.7909789894   0.616144391755426 24.1910140689695 0.616144391755426 24.1910140689695 0.78741038683587 -65.7909789894   
! Gamma         0                0                0                0                
! Port Impedance         50               0                50               0                
0.03054                        0.787347997115444 -65.8055524155641 0.616224028595759 24.1764369220437 0.616224028595759 24.1764369220437 0.787347997115344 -65.8055524155641 
