! Touchstone file exported from Circuit Design 2022.2.0
!        File:           C:/Users/JH218595/Documents/Modeling/WEST ICRH/WEST_ICRH_Capacitor.aedt
!        Generated:      9:24:16  mars 25, 2024
!        Design:         WEST_capacitor_equivalent_circuit_bridge_antenna_ports
!        Project:        WEST_ICRH_Capacitor
!        Setup:          LinearFrequency
!        Solution:       LinearFrequency
!
! Variables:
!        C = 50pF
!        C1 = 25.7pF
!        L = 2.99e-08H
!        L1 = 2.4e-09H
!        R0 = 0.01ohm
!        R1 = 0.01ohm
!        Z_bridge = 13.605332097045ohm
!        Z_strap = 46.6367556961698ohm
!
!Data is not renormalized
# GHz S MA R 13.605332
! Terminal data exported
! Port[1] = Port1
! Port[2] = Port2
0.03                           0.918960917517605 -19.6643543380172 0.394156112819185 45.6967380317383 0.394156112819185 45.6967380317382 0.918781239721919 -68.9046625508565 
! Gamma         0                0                0                0                
! Port Impedance         13.605332097045  0                46.6367556961698 0                
0.03001                        0.918921637289113 -19.6696739094935 0.394247584026882 45.684582849729  0.394247584026882 45.684582849729  0.918741874448906 -68.9236439515008 
! Gamma         0                0                0                0                
! Port Impedance         13.605332097045  0                46.6367556961698 0                
0.03002                        0.918882357660693 -19.6749927143465 0.394339028701928 45.6724295696236 0.394339028701928 45.6724295696236 0.918702509780294 -68.9426223171806 
! Gamma         0                0                0                0                
! Port Impedance         13.605332097045  0                46.6367556961698 0                
0.03003                        0.918843078637704 -19.6803107528397 0.394430446850555 45.6602781911985 0.394430446850555 45.6602781911985 0.918663145721927 -68.9615976480575 
! Gamma         0                0                0                0                
! Port Impedance         13.605332097045  0                46.6367556961698 0                
0.03004                        0.918803800225501 -19.6856280252364 0.394521838478997 45.6481287142302 0.394521838478997 45.6481287142302 0.918623782279651 -68.9805699442932 
! Gamma         0                0                0                0                
! Port Impedance         13.605332097045  0                46.6367556961698 0                
0.03005                        0.918764522429391 -19.6909445317943 0.394613203593842 45.6359811384629 0.394613203593842 45.6359811384629 0.918584419460961 -68.9995392060445 
! Gamma         0                0                0                0                
! Port Impedance         13.605332097045  0                46.6367556961698 0                
0.03006                        0.918725245254833 -19.6962602727948 0.394704542200293 45.6238354637682 0.394704542200292 45.6238354637682 0.918545057266733 -69.0185054334918 
! Gamma         0                0                0                0                
! Port Impedance         13.605332097045  0                46.6367556961698 0                
0.03007                        0.918685968707086 -19.7015752484899 0.394795854305292 45.6116916898578 0.394795854305292 45.6116916898578 0.918505695706117 -69.0374686267867 
! Gamma         0                0                0                0                
! Port Impedance         13.605332097045  0                46.6367556961698 0                
0.03008                        0.918646692791579 -19.7068894591581 0.394887139914225 45.5995498165862 0.394887139914225 45.5995498165862 0.918466334780814 -69.0564287861076 
! Gamma         0                0                0                0                
! Port Impedance         13.605332097045  0                46.6367556961698 0                
0.03009                        0.918607417513578 -19.7122029050546 0.39497839903387 45.5874098436807 0.39497839903387 45.5874098436806 0.918426974499144 -69.0753859116101 
! Gamma         0                0                0                0                
! Port Impedance         13.605332097045  0                46.6367556961698 0                
0.0301                         0.91856814287837 -19.7175155864373 0.395069631670835 45.5752717708822 0.395069631670835 45.5752717708822 0.918387614868594 -69.0943400034528 
! Gamma         0                0                0                0                
! Port Impedance         13.605332097045  0                46.6367556961698 0                
0.03011                        0.918528868891439 -19.7228275035971 0.395160837829825 45.56313559811   0.395160837829825 45.56313559811   0.918348255887559 -69.1132910618276 
! Gamma         0                0                0                0                
! Port Impedance         13.605332097045  0                46.6367556961698 0                
0.03012                        0.918489595557999 -19.7281386567834 0.395252017517977 45.551001325057  0.395252017517977 45.5510013250569 0.918308897566005 -69.1322390868854 
! Gamma         0                0                0                0                
! Port Impedance         13.605332097045  0                46.6367556961698 0                
0.03013                        0.918450322883357 -19.7334490462604 0.395343170741566 45.5388689514961 0.395343170741566 45.5388689514961 0.918269539909765 -69.1511840787921 
! Gamma         0                0                0                0                
! Port Impedance         13.605332097045  0                46.6367556961698 0                
0.03014                        0.91841105087281 -19.7387586722926 0.395434297506872 45.5267384772003 0.395434297506872 45.5267384772003 0.918230182924665 -69.1701260377145 
! Gamma         0                0                0                0                
! Port Impedance         13.605332097045  0                46.6367556961698 0                
0.03015                        0.91837177953175 -19.7440675351591 0.395525397819309 45.5146099020216 0.395525397819309 45.5146099020216 0.918190826612408 -69.1890649638341 
! Gamma         0                0                0                0                
! Port Impedance         13.605332097045  0                46.6367556961698 0                
0.03016                        0.918332508865424 -19.7493756351187 0.395616471685512 45.5024832257004 0.395616471685512 45.5024832257004 0.918151470980472 -69.2080008573128 
! Gamma         0                0                0                0                
! Port Impedance         13.605332097045  0                46.6367556961698 0                
0.03017                        0.918293238879117 -19.7546829724361 0.395707519111773 45.4903584480083 0.395707519111773 45.4903584480083 0.918112116034683 -69.2269337183182 
! Gamma         0                0                0                0                
! Port Impedance         13.605332097045  0                46.6367556961698 0                
0.03018                        0.918253969578143 -19.7599895473819 0.39579854010404 45.4782355687484 0.39579854010404 45.4782355687484 0.918072761779216 -69.2458635470249 
! Gamma         0                0                0                0                
! Port Impedance         13.605332097045  0                46.6367556961698 0                
0.03019                        0.918214700967776 -19.7652953602209 0.395889534668615 45.4661145876913 0.395889534668615 45.4661145876913 0.918033408219895 -69.2647903436015 
! Gamma         0                0                0                0                
! Port Impedance         13.605332097045  0                46.6367556961698 0                
0.0302                         0.918175433053338 -19.770600411227 0.39598050281128 45.4539955046563 0.39598050281128 45.4539955046563 0.917994055360069 -69.2837141082264 
! Gamma         0                0                0                0                
! Port Impedance         13.605332097045  0                46.6367556961698 0                
0.03021                        0.918136165840015 -19.7759047006534 0.396071444539039 45.4418783193491 0.396071444539039 45.4418783193491 0.917954703208856 -69.3026348410575 
! Gamma         0                0                0                0                
! Port Impedance         13.605332097045  0                46.6367556961698 0                
0.03022                        0.918096899333102 -19.781208228771 0.396162359857859 45.4297630315713 0.396162359857859 45.4297630315713 0.917915351770427 -69.3215525422707 
! Gamma         0                0                0                0                
! Port Impedance         13.605332097045  0                46.6367556961698 0                
0.03023                        0.918057633537924 -19.786510995857 0.396253248773361 45.4176496411564 0.396253248773362 45.4176496411564 0.917876001047304 -69.3404672120488 
! Gamma         0                0                0                0                
! Port Impedance         13.605332097045  0                46.6367556961698 0                
0.03024                        0.918018368459671 -19.7918130021677 0.39634411129239 45.4055381478258 0.39634411129239 45.4055381478258 0.917836651047777 -69.359378850554 
! Gamma         0                0                0                0                
! Port Impedance         13.605332097045  0                46.6367556961698 0                
0.03025                        0.917979104103656 -19.7971142479804 0.396434947420575 45.3934285514119 0.396434947420575 45.3934285514119 0.917797301774365 -69.3782874579697 
! Gamma         0                0                0                0                
! Port Impedance         13.605332097045  0                46.6367556961698 0                
0.03026                        0.917939840475059 -19.8024147335516 0.396525757164768 45.3813208516348 0.396525757164768 45.3813208516348 0.917757953235356 -69.397193034459 
! Gamma         0                0                0                0                
! Port Impedance         13.605332097045  0                46.6367556961698 0                
0.03027                        0.917900577579147 -19.8077144591529 0.396616540530956 45.3692150482948 0.396616540530956 45.3692150482948 0.917718605434913 -69.4160955802003 
! Gamma         0                0                0                0                
! Port Impedance         13.605332097045  0                46.6367556961698 0                
0.03028                        0.917861315421162 -19.8130134250526 0.396707297525304 45.3571111411748 0.396707297525304 45.3571111411748 0.917679258378027 -69.4349950953696 
! Gamma         0                0                0                0                
! Port Impedance         13.605332097045  0                46.6367556961698 0                
0.03029                        0.917822054006359 -19.8183116315229 0.396798028153808 45.3450091300752 0.396798028153808 45.3450091300752 0.917639912068863 -69.4538915801463 
! Gamma         0                0                0                0                
! Port Impedance         13.605332097045  0                46.6367556961698 0                
0.0303                         0.917782793339934 -19.8236090788262 0.396888732422987 45.332909014746  0.396888732422987 45.332909014746  0.917600566514053 -69.4727850347012 
! Gamma         0                0                0                0                
! Port Impedance         13.605332097045  0                46.6367556961698 0                
0.03031                        0.917743533427093 -19.8289057672286 0.396979410339194 45.3208107949537 0.396979410339194 45.3208107949537 0.917561221719403 -69.4916754592086 
! Gamma         0                0                0                0                
! Port Impedance         13.605332097045  0                46.6367556961698 0                
0.03032                        0.917704274273096 -19.8342016970049 0.397070061908263 45.3087144705125 0.397070061908263 45.3087144705125 0.917521877688255 -69.5105628538522 
! Gamma         0                0                0                0                
! Port Impedance         13.605332097045  0                46.6367556961698 0                
0.03033                        0.917665015883083 -19.8394968684123 0.397160687137074 45.2966200411399 0.397160687137074 45.2966200411399 0.917482534428878 -69.5294472187982 
! Gamma         0                0                0                0                
! Port Impedance         13.605332097045  0                46.6367556961698 0                
0.03034                        0.917625758262414 -19.8447912817438 0.397251286030428 45.2845275067462 0.397251286030428 45.2845275067462 0.917443191939684 -69.5483285542493 
! Gamma         0                0                0                0                
! Port Impedance         13.605332097045  0                46.6367556961698 0                
0.03035                        0.917586501416088 -19.8500849372358 0.397341858596429 45.2724368669354 0.397341858596429 45.2724368669354 0.917403850234689 -69.5672068603516 
! Gamma         0                0                0                0                
! Port Impedance         13.605332097045  0                46.6367556961698 0                
0.03036                        0.917547245349435 -19.8553778351785 0.397432404840061 45.2603481216006 0.397432404840062 45.2603481216006 0.917364509313125 -69.5860821373056 
! Gamma         0                0                0                0                
! Port Impedance         13.605332097045  0                46.6367556961698 0                
0.03037                        0.917507990067595 -19.8606699758324 0.397522924768047 45.2482612704742 0.397522924768047 45.2482612704742 0.917325169182433 -69.6049543852824 
! Gamma         0                0                0                0                
! Port Impedance         13.605332097045  0                46.6367556961698 0                
0.03038                        0.917468735575717 -19.8659613594609 0.397613418386942 45.2361763133036 0.397613418386942 45.2361763133036 0.917285829849232 -69.6238236044563 
! Gamma         0                0                0                0                
! Port Impedance         13.605332097045  0                46.6367556961698 0                
0.03039                        0.917429481879117 -19.8712519863546 0.397703885701739 45.2240932499811 0.397703885701739 45.2240932499811 0.917246491312758 -69.6426897950293 
! Gamma         0                0                0                0                
! Port Impedance         13.605332097045  0                46.6367556961698 0                
0.0304                         0.917390228982786 -19.8765418567531 0.397794326720392 45.2120120801249 0.397794326720392 45.2120120801249 0.917207153586188 -69.6615529571526 
! Gamma         0                0                0                0                
! Port Impedance         13.605332097045  0                46.6367556961698 0                
0.03041                        0.917350976891989 -19.8818309709412 0.39788474144825 45.1999328035948 0.39788474144825 45.1999328035948 0.917167816670396 -69.6804130910231 
! Gamma         0                0                0                0                
! Port Impedance         13.605332097045  0                46.6367556961698 0                
0.03042                        0.917311725611895 -19.8871193291887 0.397975129891539 45.1878554201686 0.397975129891539 45.1878554201686 0.917128480570356 -69.6992701968232 
! Gamma         0                0                0                0                
! Port Impedance         13.605332097045  0                46.6367556961698 0                
0.03043                        0.917272475147646 -19.8924069317625 0.398065492056657 45.1757799296088 0.398065492056657 45.1757799296089 0.917089145291861 -69.7181242747323 
! Gamma         0                0                0                0                
! Port Impedance         13.605332097045  0                46.6367556961698 0                
0.03044                        0.917233225504381 -19.8976937789297 0.398155827950011 45.163706331677  0.398155827950011 45.163706331677  0.917049810840701 -69.7369753249307 
! Gamma         0                0                0                0                
! Port Impedance         13.605332097045  0                46.6367556961698 0                
0.03045                        0.917193976687268 -19.9029798709632 0.398246137577663 45.1516346261667 0.398246137577663 45.1516346261667 0.917010477221029 -69.755823347605 
! Gamma         0                0                0                0                
! Port Impedance         13.605332097045  0                46.6367556961698 0                
0.03046                        0.917154728701437 -19.9082652081303 0.398336420946026 45.1395648128386 0.398336420946026 45.1395648128386 0.916971144438632 -69.7746683429361 
! Gamma         0                0                0                0                
! Port Impedance         13.605332097045  0                46.6367556961698 0                
0.03047                        0.917115481552027 -19.9135497907013 0.398426678061344 45.1274968914698 0.398426678061344 45.1274968914698 0.916931812498479 -69.7935103111086 
! Gamma         0                0                0                0                
! Port Impedance         13.605332097045  0                46.6367556961698 0                
0.03048                        0.917076235244192 -19.9188336189494 0.398516908929691 45.1154308618524 0.398516908929691 45.1154308618524 0.916892481404718 -69.8123492523105 
! Gamma         0                0                0                0                
! Port Impedance         13.605332097045  0                46.6367556961698 0                
0.03049                        0.917036989782949 -19.9241166931269 0.398607113558362 45.1033667236661 0.398607113558362 45.1033667236661 0.916853151167226 -69.8311851667089 
! Gamma         0                0                0                0                
! Port Impedance         13.605332097045  0                46.6367556961698 0                
0.0305                         0.916997745173593 -19.9293990135317 0.398697291952049 45.0913044768309 0.398697291952049 45.0913044768309 0.916813821783604 -69.850018054517 
! Gamma         0                0                0                0                
! Port Impedance         13.605332097045  0                46.6367556961698 0                
0.03051                        0.916958501421129 -19.9346805804159 0.398787444118056 45.0792441210256 0.398787444118056 45.0792441210255 0.916774493263725 -69.8688479159026 
! Gamma         0                0                0                0                
! Port Impedance         13.605332097045  0                46.6367556961698 0                
0.03052                        0.916919258530672 -19.9399613940504 0.398877570062646 45.0671856560252 0.398877570062646 45.0671856560252 0.916735165612551 -69.8876747510527 
! Gamma         0                0                0                0                
! Port Impedance         13.605332097045  0                46.6367556961698 0                
0.03053                        0.916880016507349 -19.945241454709 0.398967669791913 45.0551290816206 0.398967669791913 45.0551290816206 0.916695838834227 -69.9064985601574 
! Gamma         0                0                0                0                
! Port Impedance         13.605332097045  0                46.6367556961698 0                
0.03054                        0.916840775356244 -19.9505207626593 0.399057743312305 45.0430743975691 0.399057743312305 45.0430743975691 0.916656512934531 -69.9253193434012 
